(0.000000) can0 100#0000000000000000
(0.010000) can0 200#0000000000000000
(0.100000) can0 100#5802000000000000
(0.110000) can0 200#0000000000000000
(0.200000) can0 100#b004000000000000
(0.210000) can0 200#0000000000000000
(0.300000) can0 100#0807000000000000
(0.310000) can0 200#0000000000000000
(0.400000) can0 100#6009000000000000
(0.410000) can0 200#0000000000000000
(0.500000) can0 100#b80b000000000000
(0.510000) can0 200#0000000000000000
(0.600000) can0 100#100e000000000000
(0.610000) can0 200#0000000000000000
(0.700000) can0 100#6810000000000000
(0.710000) can0 200#0000000000000000
(0.800000) can0 100#c012000000000000
(0.810000) can0 200#0000000000000000
(0.900000) can0 100#1815000000000000
(0.910000) can0 200#0000000000000000
(1.000000) can0 100#7017000000000000
(1.010000) can0 200#0000000000000000
(1.100000) can0 100#9c18000000000000
(1.110000) can0 200#0000000000000000
(1.200000) can0 100#c819000000000000
(1.210000) can0 200#0000000000000000
(1.300000) can0 100#f41a000000000000
(1.310000) can0 200#0000000000000000
(1.400000) can0 100#201c000000000000
(1.410000) can0 200#0000000000000000
(1.500000) can0 100#4c1d000000000000
(1.510000) can0 200#0000000000000000
(1.600000) can0 100#781e000000000000
(1.610000) can0 200#0000000000000000
(1.700000) can0 100#a41f000000000000
(1.710000) can0 200#8813010000000000
(1.800000) can0 100#d020000000000000
(1.810000) can0 200#8813010000000000
(1.900000) can0 100#fc21000000000000
(1.910000) can0 200#8813010000000000
(2.000000) can0 100#2823000000000000
(2.010000) can0 200#401f010000000000
(2.100000) can0 100#a41f000000000000
(2.110000) can0 200#401f010000000000
(2.200000) can0 100#201c000000000000
(2.210000) can0 200#401f010000000000
(2.300000) can0 100#9c18000000000000
(2.310000) can0 200#401f010000000000
(2.400000) can0 100#1815000000000000
(2.410000) can0 200#401f010000000000
(2.500000) can0 100#9411000000000000
(2.510000) can0 200#401f010000000000
(2.600000) can0 100#100e000000000000
(2.610000) can0 200#401f010000000000
(2.700000) can0 100#8c0a000000000000
(2.710000) can0 200#401f010000000000
(2.800000) can0 100#0807000000000000
(2.810000) can0 200#401f010000000000
(2.900000) can0 100#8403000000000000
(2.910000) can0 200#0000000000000000
(3.000000) can0 100#0000000000000000
(3.010000) can0 200#0000000000000000
(3.110000) can0 100#0000000000000000
(3.120000) can0 200#0000000000000000
(3.210000) can0 100#8403000000000000
(3.220000) can0 200#0000000000000000
(3.310000) can0 100#0807000000000000
(3.320000) can0 200#0000000000000000
(3.410000) can0 100#8c0a000000000000
(3.420000) can0 200#0000000000000000
(3.510000) can0 100#100e000000000000
(3.520000) can0 200#0000000000000000
(3.610000) can0 100#9411000000000000
(3.620000) can0 200#0000000000000000
(3.710000) can0 100#1815000000000000
(3.720000) can0 200#0000000000000000
(3.810000) can0 100#9b18000000000000
(3.820000) can0 200#0000000000000000
(3.910000) can0 100#201c000000000000
(3.920000) can0 200#0000000000000000
(4.010000) can0 100#a41f000000000000
(4.020000) can0 200#0000000000000000
(4.110000) can0 100#2823000000000000
(4.120000) can0 200#0000000000000000
(4.210000) can0 100#8025000000000000
(4.220000) can0 200#0000000000000000
(4.310000) can0 100#d827000000000000
(4.320000) can0 200#0000000000000000
(4.410000) can0 100#302a000000000000
(4.420000) can0 200#0000000000000000
(4.510000) can0 100#882c000000000000
(4.520000) can0 200#0000000000000000
(4.610000) can0 100#e02e000000000000
(4.620000) can0 200#0000000000000000
(4.710000) can0 100#3831000000000000
(4.720000) can0 200#0000000000000000
(4.810000) can0 100#9033000000000000
(4.820000) can0 200#0000000000000000
(4.910000) can0 100#e835000000000000
(4.920000) can0 200#0000000000000000
(5.010000) can0 100#4038000000000000
(5.020000) can0 200#0000000000000000
(5.110000) can0 100#983a000000000000
(5.120000) can0 200#1027010000000000
(5.210000) can0 100#fd37000000000000
(5.220000) can0 200#1027010000000000
(5.310000) can0 100#6235000000000000
(5.320000) can0 200#1027010000000000
(5.410000) can0 100#c832000000000000
(5.420000) can0 200#1027010000000000
(5.510000) can0 100#2d30000000000000
(5.520000) can0 200#1027010000000000
(5.610000) can0 100#922d000000000000
(5.620000) can0 200#1027010000000000
(5.710000) can0 100#f82a000000000000
(5.720000) can0 200#1027010000000000
(5.810000) can0 100#5d28000000000000
(5.820000) can0 200#1027010000000000
(5.910000) can0 100#c225000000000000
(5.920000) can0 200#1027010000000000
(6.010000) can0 100#2823000000000000
(6.020000) can0 200#1027010000000000
(6.110000) can0 100#8d20000000000000
(6.120000) can0 200#1027010000000000
(6.210000) can0 100#f21d000000000000
(6.220000) can0 200#1027010000000000
(6.310000) can0 100#581b000000000000
(6.320000) can0 200#1027010000000000
(6.410000) can0 100#bd18000000000000
(6.420000) can0 200#1027010000000000
(6.510000) can0 100#2216000000000000
(6.520000) can0 200#1027010000000000
(6.610000) can0 100#8813000000000000
(6.620000) can0 200#1027010000000000
